# RS485 角行程球阀控制器 — 现场 PID 参数调试教程

> 适用:流量模式 / 压力模式 / 给定模式(角度模式无需 PID)
> 配套文档:《RS485角行程球阀控制器_使用说明书》
> 文档版本:2026-06-28

---

## 1. 调试前准备

**工具**
- 一台 Modbus-RTU 主站:调试软件(如 Modbus Poll / 串口调试助手)、触摸屏或 PLC 均可。
- USB-转-RS485 转换器、屏蔽双绞线。

**确认通讯参数**
- 从站地址:出厂默认 **13**;波特率:默认 **9600**;格式 **8N1**(8 数据位、无校验、1 停止位)。
- 多台设备共用总线时,确保每台地址唯一。

**接线与机械检查**
- RS485 的 A/B 不要接反;总线两端可加 120Ω 终端电阻。
- 确认阀门机械行程通畅、限位正常(上电会自动标定全行程)。

**先做一次通讯自检**
- 读"当前流量/压力/给定"等寄存器,能正确返回即通讯正常,再开始整定。

---

## 2. 调试相关寄存器速查

| 用途 | 流量模式 | 压力模式 | 给定模式 |
|------|:---:|:---:|:---:|
| 设定目标(写入即进入该模式) | 7 | 25 | 29 |
| 读取当前反馈值 | 8 | 26 | 29 |
| 满量程(PID 归一化分母) | 14 最大流量 | 27 最大压力 | 30 最大给定值 |

**三种模式公用:**

| 寄存器 | 名称 | 默认 | 作用 |
|:---:|------|:---:|------|
| 16 | P | 10 | 比例增益 |
| 17 | I | 50 | 积分增益(本控制器的主驱动项,见第 3 节) |
| 18 | D | 12 | 微分增益(阻尼) |
| 15 | 最大行程 | 标定值 | 全行程时间(秒),PID 输出的时间标度 |
| 32 | 模糊 PID 使能 | 0 | 0=经典,1=模糊自整定 |
| 33~36 | 模糊整定参数 | 见第 6 节 | 仅模糊模式有效 |

> P/I/D(16/17/18)**写入立即生效并掉电保存**,可在线反复调整。

---

## 3. 先理解这台控制器的 PID(很重要)

本控制器是**增量式 PID 驱动电机**:每个控制周期算出一个增量 Δu,电机就按 Δu 的大小运行相应时间、按符号决定开/关方向,**阀门位置 = 历次增量的累积**(电机本身就是积分器)。

每周期的增量:

```
Δu = P·(e − e_上次) + I·e + D·(e − 2·e_上次 + e_上上次)
其中 e = 目标值 − 当前值
电机运行时间(ms) = Δu × 最大行程 ÷ 满量程 ,限幅 ±1000ms
```

因为电机在累积增量,这里的 **P / I / D 对应标准"位置式"PID 的三个作用**:

| 参数 | 在本控制器里的实际作用 | 调大 | 调小 |
|------|----------------------|------|------|
| **I(reg17)** | **主驱动项**:只要还有偏差就持续推动阀门逼近目标 | 逼近更快,但易超调/振荡 | 逼近变慢,甚至到不了位 |
| **P(reg16)** | 对偏差**变化**响应,临近目标时起刹车/阻尼 | 抑制超调、approach 更稳 | 阻尼弱,易冲过头 |
| **D(reg18)** | 进一步阻尼,抑制振荡(对噪声敏感) | 更稳但过大会迟钝/抖 | 阻尼弱 |

> 默认 `P=10, I=50, D=12`——**I 比 P 大**正是因为 I 是这里的主驱动项。整定时请按"**先调 I 定速度,再用 P/D 求稳定**"的顺序,而不是传统的先调 P。

**控制节奏(影响整定耐心):**
- **流量模式**:每个流量采样周期(**≥500ms**)才算一次 PID,环路慢,改参数后要多等几拍再判断,步子要小。
- **压力 / 给定模式**:每个主循环(约 100ms + 电机动作)算一次,响应较快。

---

## 4. 经典 PID 整定步骤(通用流程)

> 建议先用经典 PID(寄存器 32 = 0,出厂默认)整定好,再决定是否启用模糊。

**第 0 步:设好量程与目标**
1. 把"满量程"寄存器设成实际值:流量→reg14、压力→reg27、给定→reg30。
2. 确认"最大行程"reg15 是真实全行程秒数(首次上电已自动标定,一般不用改)。
3. 写目标值进入对应模式(流量 reg7 / 压力 reg25 / 给定 reg29)。
4. 持续读反馈(流量 reg8 / 压力 reg26 / 给定 reg29)观察曲线。

**第 1 步:定基础(P 适中、D=0、I 偏小)**
- 先 `D=0`,`P` 保持默认附近,`I` 取一个较小值。
- 观察阀门能否平稳逼近目标、速度是否可接受。

**第 2 步:加大 I 求响应速度**
- 逐步加大 `I`,直到逼近速度满意;
- 一旦出现**超调**(冲过目标再回来)或**在目标附近反复振荡**,说明 I 偏大,**回退 20~30%**。

**第 3 步:用 P / D 压超调**
- 若仍有超调或振荡:适当加大 `P`(临近目标时的刹车),必要时再加少量 `D`。
- `D` 一次加一点点;过大反而引入抖动、对测量噪声敏感。

**第 4 步:消除稳态抖动**
- 若稳定后仍在目标值附近小幅来回动作(频繁启停电机):**减小 I**(和/或减 P),让小偏差不足以触发电机动作。

**第 5 步:复测**
- 给一个较大的目标阶跃,观察:上升时间、超调量、稳定时间是否都可接受;再微调。

**经验起点(仅供参考,务必现场实测)**

| 现象期望 | 大致方向 |
|---------|---------|
| 又快又有点冲 | I 大、P 中、D 小 |
| 慢但很稳 | I 小、P 中、D 中 |
| 默认 10/50/12 | 偏积分主导,适合慢速阀,先从这里开始 |

---

## 5. 现象 → 对策 速查表

| 现象 | 可能原因 | 调整 |
|------|---------|------|
| 到位太慢、半天不到目标 | I 太小 | **加大 I** |
| 冲过目标再回来(超调) | I 太大 / 阻尼不足 | **减小 I**,或加大 P、加少量 D |
| 在目标附近反复来回(等幅振荡) | I 太大 | **减小 I**,适当加 P |
| 稳定后电机频繁小幅启停(抖动) | 小偏差仍触发动作 | **减小 I**,或减小 P |
| 响应迟钝、像有延迟然后猛冲 | I 偏大且无阻尼 | 减 I,**加 D** |
| 测量值跳变导致动作毛刺 | D 太大放大噪声 | **减小 D**;流量可开卡尔曼滤波(reg2=1) |
| 改了 P/I/D 几乎没反应 | 偏差经满量程归一化后太小,输出不足 1ms | 检查满量程(14/27/30)是否设得过大;或加大对应增益 |
| 完全不动 | 未进入该模式 / 偏差为 0 / 行程受阻 | 确认已写目标进入模式、机械无卡阻 |

---

## 6. 进阶:模糊 PID 整定(可选)

当工况大范围变化、既要大偏差时响应快、又要小偏差时平稳时,可启用**模糊自整定 PID**:它在你整定好的 P/I/D 基础上,按偏差大小在线动态加减增益。

**启用前提:先把第 4 节的经典 P/I/D 整定到"基本可用"。**

**步骤**
1. 写 `寄存器 32 = 1` 启用模糊。
2. 三个整定强度(reg34/35/36,默认 30%)决定 Kp/Ki/Kd 的浮动幅度:
   - 想让大偏差时更激进、小偏差时更柔和,可适当**加大整定强度**(如 40~50%);
   - 想保守一点就调小;设 0 表示该增益不参与模糊整定。
3. `Kec 倍数`(reg33,默认 4)是对"偏差变化速度"的灵敏度:
   - 偏大 → 对变化更敏感、刹车更早(更稳但可能偏慢);
   - 偏小 → 更跟随、更快(但可能欠阻尼)。
4. 量化因子 Ke 由固件自动按 `3 ÷ 满量程` 取,无需手动设。
5. 不满意随时写 `reg32 = 0` 立即退回经典 PID(行为与启用前完全一致)。

> 提示:模糊只是"在线微调增益",基础 P/I/D 整定得越好,模糊收益越明显;基础没整定好,光开模糊作用有限。

---

## 7. 常见问题(FAQ)

**Q:改了 P/I/D 要不要重启?**
A:不用,写入立即生效并已存 Flash。

**Q:整定坏了想恢复?**
A:逐个把 P/I/D 写回默认(10/50/12)即可;或写寄存器 6 恢复出厂(注意会清空全部参数并触发重新标定)。

**Q:为什么流量模式调起来特别慢?**
A:流量每 ≥500ms 才更新一次,环路本就慢。改参数后多等几拍,步子放小。

**Q:阀门在目标值附近一直"哒哒"启停?**
A:典型 I 偏大。减小 I;流量模式可同时开卡尔曼滤波(reg2=1)抑制测量跳变。

**Q:能广播给所有阀同时设 P/I/D 吗?**
A:可以,用从站地址 255 广播写(不返回应答)。

---

## 8. 调试报文示例(从站地址 13 = 0x0D)

> 十六进制,末尾两字节为 CRC16(低字节在前)。

**读取(功能码 0x03)**

| 操作 | 报文 |
|------|------|
| 读 P / I / D(reg16 起 3 个) | `0D 03 00 10 00 03 04 C2` |
| 读当前流量(reg8) | `0D 03 00 08 00 01 05 04` |
| 读当前压力(reg26) | `0D 03 00 1A 00 01 A5 01` |
| 读当前给定值(reg29) | `0D 03 00 1D 00 01 14 C0` |

**写入(功能码 0x06)**

| 操作 | 报文 |
|------|------|
| 设 P = 15(reg16) | `0D 06 00 10 00 0F C8 C7` |
| 设 I = 40(reg17) | `0D 06 00 11 00 28 D9 1D` |
| 设 D = 8(reg18) | `0D 06 00 12 00 08 28 C5` |
| 进入流量模式,目标 300 L/H(reg7) | `0D 06 00 07 01 2C 38 8A` |
| 启用模糊 PID(reg32 = 1) | `0D 06 00 20 00 01 49 0C` |
| Kp 整定强度 40%(reg34) | `0D 06 00 22 00 28 29 12` |
| Kec 倍数 = 6(reg33) | `0D 06 00 21 00 06 59 0E` |

---

## 9. 安全注意

1. 整定期间电机会按 PID 频繁动作,确保人员远离阀门活动部件。
2. I 设得过大可能导致剧烈来回动作,加大幅度时小步进行。
3. 现场首次上电会自动跑全行程标定,确认机械限位可靠后再通电。
4. 改完地址 / 波特率请记录,否则需恢复出厂找回默认 13 / 9600。
5. 一次只改一个参数、观察一拍再改下一个,便于判断每个参数的影响。
